t,t_next,dt,vs,u,iL,vC,iL_next,vC_next
0.0,5.0000000000000004e-08,5.0000000000000004e-08,10.0,1.0,0.0,0.0,0.0022361362352967262,0.0
5.0000000000000004e-08,1.0000000000000001e-07,5.0000000000000004e-08,10.0,1.0,0.0022361362352967262,0.0,0.0044722724705934525,1.51499705225433e-06
1.0000000000000001e-07,1.5000000000000002e-07,5.000000000000001e-08,10.0,1.0,0.0044722724705934525,1.51499705225433e-06,0.006708408705890179,4.544785952020902e-06
1.5000000000000002e-07,2.0000000000000002e-07,5e-08,10.0,1.0,0.006708408705890179,4.544785952020902e-06,0.00894454400986433,9.089160812436603e-06
2.0000000000000002e-07,2.5000000000000004e-07,5.0000000000000024e-08,10.0,1.0,0.00894454400986433,9.089160812436603e-06,0.011180678382515907,1.514791620138567e-05
2.5000000000000004e-07,3.0000000000000004e-07,5e-08,10.0,1.0,0.011180678382515907,1.514791620138567e-05,0.01341681182384491,2.2720847482560202e-05
3.0000000000000004e-07,3.5000000000000004e-07,5e-08,10.0,1.0,0.01341681182384491,2.2720847482560202e-05,0.015652943402528763,3.18077472911682e-05
3.5000000000000004e-07,4.0000000000000003e-07,5e-08,10.0,1.0,0.015652943402528763,3.18077472911682e-05,0.017889073118567467,4.2408410081407055e-05
4.0000000000000003e-07,4.5000000000000003e-07,5e-08,10.0,1.0,0.017889073118567467,4.2408410081407055e-05,0.020125199109315872,5.452262848848477e-05
4.5000000000000003e-07,5.000000000000001e-07,5.000000000000005e-08,10.0,1.0,0.020125199109315872,5.452262848848477e-05,0.02236132323741913,6.815019878558815e-05
5.000000000000001e-07,5.5e-07,4.9999999999999945e-08,10.0,1.0,0.02236132323741913,6.815019878558815e-05,0.024597443640232086,8.329090633196756e-05
5.5e-07,6.000000000000001e-07,5.000000000000005e-08,10.0,1.0,0.024597443640232086,8.329090633196756e-05,0.026833562180399895,9.994454740080982e-05
6.000000000000001e-07,6.5e-07,4.9999999999999945e-08,10.0,1.0,0.026833562180399895,9.994454740080982e-05,0.029069676995277405,0.00011811092554125935
6.5e-07,7.000000000000001e-07,5.000000000000005e-08,10.0,1.0,0.029069676995277405,0.00011811092554125935,0.03130578622221947,0.0001377898151986301
7.000000000000001e-07,7.5e-07,4.9999999999999945e-08,10.0,1.0,0.03130578622221947,0.0001377898151986301,0.03354189172387123,0.00015898101264610887
7.5e-07,8.000000000000001e-07,5.000000000000005e-08,10.0,1.0,0.03354189172387123,0.00015898101264610887,0.0357779935002327,0.0001816843287087977
8.000000000000001e-07,8.500000000000001e-07,5.000000000000005e-08,10.0,1.0,0.0357779935002327,0.0001816843287087977,0.038014087826013565,0.00020589953055605292
8.500000000000001e-07,9.000000000000001e-07,4.9999999999999945e-08,10.0,1.0,0.038014087826013565,0.00020589953055605292,0.040250178426504135,0.0002316264290129766
9.000000000000001e-07,9.500000000000001e-07,5.000000000000005e-08,10.0,1.0,0.040250178426504135,0.0002316264290129766,0.04248626157641411,0.00025886480580084026
9.500000000000001e-07,1.0000000000000002e-06,5.000000000000005e-08,10.0,1.0,0.04248626157641411,0.00025886480580084026,0.04472234100103378,0.0002876144426409155
1.0000000000000002e-06,1.0500000000000001e-06,4.9999999999999945e-08,10.0,1.0,0.04472234100103378,0.0002876144426409155,0.04695841297507286,0.0003178751503583044
1.0500000000000001e-06,1.1e-06,4.9999999999999945e-08,10.0,1.0,0.04695841297507286,0.0003178751503583044,0.04919447749853134,0.00034964672522619367
1.1e-06,1.15e-06,4.9999999999999945e-08,10.0,1.0,0.04919447749853134,0.00034964672522619367,0.051430534571409225,0.0003829289344139397
1.15e-06,1.2000000000000002e-06,5.0000000000000157e-08,10.0,1.0,0.051430534571409225,0.0003829289344139397,0.05366658419370651,0.00041772157419472933
1.2000000000000002e-06,1.25e-06,4.9999999999999945e-08,10.0,1.0,0.05366658419370651,0.00041772157419472933,0.0559026263654232,0.0004540244408417493
1.25e-06,1.3e-06,4.9999999999999945e-08,10.0,1.0,0.0559026263654232,0.0004540244408417493,0.058138661086559296,0.0004918373306281865
1.3e-06,1.3500000000000002e-06,5.0000000000000157e-08,10.0,1.0,0.058138661086559296,0.0004918373306281865,0.06037468835711479,0.0005311600398272276
1.3500000000000002e-06,1.4000000000000001e-06,4.9999999999999945e-08,10.0,1.0,0.06037468835711479,0.0005311600398272276,0.06261070817708969,0.0005719923065043986
1.4000000000000001e-06,1.45e-06,4.9999999999999945e-08,10.0,1.0,0.06261070817708969,0.0005719923065043986,0.0648467168211937,0.0006143339560367167
1.45e-06,1.5e-06,4.9999999999999945e-08,10.0,1.0,0.0648467168211937,0.0006143339560367167,0.0670827180147171,0.0006581848138011992
1.5e-06,1.5500000000000002e-06,5.0000000000000157e-08,10.0,1.0,0.0670827180147171,0.0006581848138011992,0.06931870430707932,0.0007035445887595415
1.5500000000000002e-06,1.6000000000000001e-06,4.9999999999999945e-08,10.0,1.0,0.06931870430707932,0.0007035445887595415,0.07155468314886093,0.0007504131644964218
1.6000000000000001e-06,1.65e-06,4.9999999999999945e-08,10.0,1.0,0.07155468314886093,0.0007504131644964218,0.07379065454006195,0.0007987902499735355
1.65e-06,1.7000000000000002e-06,5.0000000000000157e-08,10.0,1.0,0.07379065454006195,0.0007987902499735355,0.07602661103010178,0.0008486756705678999
1.7000000000000002e-06,1.7500000000000002e-06,4.9999999999999945e-08,10.0,1.0,0.07602661103010178,0.0008486756705678999,0.078262560069561,0.0009000691934488714
1.7500000000000002e-06,1.8000000000000001e-06,4.9999999999999945e-08,10.0,1.0,0.078262560069561,0.0009000691934488714,0.08049849420785904,0.0009529706439934671
1.8000000000000001e-06,1.85e-06,4.9999999999999945e-08,10.0,1.0,0.08049849420785904,0.0009529706439934671,0.08273442089557648,0.0010073797311633825
1.85e-06,1.9000000000000002e-06,5.0000000000000157e-08,10.0,1.0,0.08273442089557648,0.0010073797311633825,0.08497033268213272,0.0010632963385432959
1.9000000000000002e-06,1.95e-06,4.999999999999973e-08,10.0,1.0,0.08497033268213272,0.0010632963385432959,0.08720622956752777,0.0011207201750949025
1.95e-06,2.0000000000000003e-06,5.000000000000037e-08,10.0,1.0,0.08720622956752777,0.0011207201750949025,0.08944211900234222,0.0011796511244028807
2.0000000000000003e-06,2.0500000000000003e-06,4.9999999999999945e-08,10.0,1.0,0.08944211900234222,0.0011796511244028807,0.09167799353599548,0.0012400889536365867
2.0500000000000003e-06,2.1000000000000002e-06,4.9999999999999945e-08,10.0,1.0,0.09167799353599548,0.0012400889536365867,0.09391385316848755,0.0013020334299653769
2.1000000000000002e-06,2.15e-06,4.9999999999999945e-08,10.0,1.0,0.09391385316848755,0.0013020334299653769,0.09614969789981842,0.0013654842041432858
2.15e-06,2.2e-06,4.9999999999999945e-08,10.0,1.0,0.09614969789981842,0.0013654842041432858,0.0983855277299881,0.0014304412761703134
2.2e-06,2.25e-06,4.9999999999999945e-08,10.0,1.0,0.0983855277299881,0.0014304412761703134,0.10062134265899658,0.0014969042968004942
2.25e-06,2.3e-06,4.9999999999999945e-08,10.0,1.0,0.10062134265899658,0.0014969042968004942,0.10285714268684387,0.0015648731496185064
2.3e-06,2.3500000000000004e-06,5.000000000000037e-08,10.0,1.0,0.10285714268684387,0.0015648731496185064,0.10509292781352997,0.0016343474853783846
2.3500000000000004e-06,2.4000000000000003e-06,4.9999999999999945e-08,10.0,1.0,0.10509292781352997,0.0016343474853783846,0.10732869803905487,0.0017053271876648068
2.4000000000000003e-06,2.4500000000000003e-06,4.9999999999999945e-08,10.0,1.0,0.10732869803905487,0.0017053271876648068,0.10956445336341858,0.0017778120236471295
2.4500000000000003e-06,2.5e-06,4.9999999999999945e-08,10.0,1.0,0.10956445336341858,0.0017778120236471295,0.1118001937866211,0.001851801760494709
2.5e-06,2.55e-06,4.9999999999999945e-08,10.0,1.0,0.1118001937866211,0.001851801760494709,0.11403591930866241,0.0019272961653769016
2.55e-06,2.6e-06,4.9999999999999945e-08,10.0,1.0,0.11403591930866241,0.0019272961653769016,0.11627162247896194,0.0020042951218783855
2.6e-06,2.65e-06,4.9999999999999945e-08,10.0,1.0,0.11627162247896194,0.0020042951218783855,0.11850731074810028,0.002082798397168517
2.65e-06,2.7000000000000004e-06,5.000000000000037e-08,10.0,1.0,0.11850731074810028,0.002082798397168517,0.12074298411607742,0.0021628057584166527
2.7000000000000004e-06,2.7500000000000004e-06,4.9999999999999945e-08,10.0,1.0,0.12074298411607742,0.0021628057584166527,0.12297863513231277,0.0022443169727921486
2.7500000000000004e-06,2.8000000000000003e-06,4.9999999999999945e-08,10.0,1.0,0.12297863513231277,0.0022443169727921486,0.12521426379680634,0.002327331807464361
2.8000000000000003e-06,2.8500000000000002e-06,4.9999999999999945e-08,10.0,1.0,0.12521426379680634,0.002327331807464361,0.1274498850107193,0.002411850029602647
2.8500000000000002e-06,2.9e-06,4.9999999999999945e-08,10.0,1.0,0.1274498850107193,0.002411850029602647,0.12968547642230988,0.002497871406376362
2.9e-06,2.95e-06,4.9999999999999945e-08,10.0,1.0,0.12968547642230988,0.002497871406376362,0.13192105293273926,0.0025853957049548626
2.95e-06,3e-06,4.9999999999999945e-08,10.0,1.0,0.13192105293273926,0.0025853957049548626,0.13415661454200745,0.0026744226925075054
3e-06,3.0500000000000004e-06,5.000000000000037e-08,10.0,1.0,0.13415661454200745,0.0026744226925075054,0.13639214634895325,0.0027649523690342903
3.0500000000000004e-06,3.1000000000000004e-06,4.9999999999999945e-08,10.0,1.0,0.13639214634895325,0.0027649523690342903,0.13862766325473785,0.00285698426887393
3.1000000000000004e-06,3.1500000000000003e-06,4.9999999999999945e-08,10.0,1.0,0.13862766325473785,0.00285698426887393,0.14086316525936127,0.0029505183920264244
3.1500000000000003e-06,3.2000000000000003e-06,4.9999999999999945e-08,10.0,1.0,0.14086316525936127,0.0029505183920264244,0.1430986374616623,0.0030455542728304863
3.2000000000000003e-06,3.2500000000000002e-06,4.9999999999999945e-08,10.0,1.0,0.1430986374616623,0.0030455542728304863,0.14533409476280212,0.0031420919112861156
3.2500000000000002e-06,3.3e-06,4.9999999999999945e-08,10.0,1.0,0.14533409476280212,0.0031420919112861156,0.14756952226161957,0.003240131074562669
3.3e-06,3.35e-06,4.9999999999999945e-08,10.0,1.0,0.14756952226161957,0.003240131074562669,0.14980493485927582,0.0033396712969988585
3.35e-06,3.4000000000000005e-06,5.000000000000037e-08,10.0,1.0,0.14980493485927582,0.0033396712969988585,0.15204031765460968,0.0034407125785946846
3.4000000000000005e-06,3.4500000000000004e-06,4.9999999999999945e-08,10.0,1.0,0.15204031765460968,0.0034407125785946846,0.15427568554878235,0.0035432546865195036
3.4500000000000004e-06,3.5000000000000004e-06,4.9999999999999945e-08,10.0,1.0,0.15427568554878235,0.0035432546865195036,0.15651102364063263,0.0036472973879426718
3.5000000000000004e-06,3.5500000000000003e-06,4.9999999999999945e-08,10.0,1.0,0.15651102364063263,0.0036472973879426718,0.15874634683132172,0.0037528404500335455
3.5500000000000003e-06,3.6000000000000003e-06,4.9999999999999945e-08,10.0,1.0,0.15874634683132172,0.0037528404500335455,0.16098164021968842,0.003859883639961481
3.6000000000000003e-06,3.65e-06,4.9999999999999945e-08,10.0,1.0,0.16098164021968842,0.003859883639961481,0.16321691870689392,0.003968426957726479
3.65e-06,3.7e-06,4.9999999999999945e-08,10.0,1.0,0.16321691870689392,0.003968426957726479,0.16545216739177704,0.004078469704836607
3.7e-06,3.7500000000000005e-06,5.000000000000037e-08,10.0,1.0,0.16545216739177704,0.004078469704836607,0.16768738627433777,0.004190011881291866
3.7500000000000005e-06,3.8000000000000005e-06,4.9999999999999945e-08,10.0,1.0,0.16768738627433777,0.004190011881291866,0.1699225902557373,0.0043030534870922565
3.8000000000000005e-06,3.85e-06,4.9999999999999945e-08,10.0,1.0,0.1699225902557373,0.0043030534870922565,0.17215776443481445,0.00441759405657649
3.85e-06,3.9e-06,4.999999999999952e-08,10.0,1.0,0.17215776443481445,0.00441759405657649,0.1743929088115692,0.004533633589744568
3.9e-06,3.95e-06,5.000000000000037e-08,10.0,1.0,0.1743929088115692,0.004533633589744568,0.17662803828716278,0.004651171620935202
3.95e-06,4.000000000000001e-06,5.000000000000037e-08,10.0,1.0,0.17662803828716278,0.004651171620935202,0.17886313796043396,0.004770208150148392
4.000000000000001e-06,4.05e-06,4.999999999999952e-08,10.0,1.0,0.17886313796043396,0.004770208150148392,0.18109820783138275,0.004890742711722851
4.05e-06,4.1000000000000006e-06,5.000000000000037e-08,10.0,1.0,0.18109820783138275,0.004890742711722851,0.18333324790000916,0.005012775305658579
4.1000000000000006e-06,4.15e-06,4.999999999999952e-08,10.0,1.0,0.18333324790000916,0.005012775305658579,0.18556825816631317,0.005136305466294289
4.15e-06,4.2000000000000004e-06,5.000000000000037e-08,10.0,1.0,0.18556825816631317,0.005136305466294289,0.1878032386302948,0.00526133319362998
4.2000000000000004e-06,4.25e-06,4.999999999999952e-08,10.0,1.0,0.1878032386302948,0.00526133319362998,0.19003820419311523,0.005387858022004366
4.25e-06,4.3e-06,5.000000000000037e-08,10.0,1.0,0.19003820419311523,0.005387858022004366,0.19227313995361328,0.005515879951417446
4.3e-06,4.350000000000001e-06,5.000000000000037e-08,10.0,1.0,0.19227313995361328,0.005515879951417446,0.19450804591178894,0.005645398981869221
4.350000000000001e-06,4.4e-06,4.999999999999952e-08,10.0,1.0,0.19450804591178894,0.005645398981869221,0.1967429220676422,0.005776414647698402
4.4e-06,4.450000000000001e-06,5.000000000000037e-08,10.0,1.0,0.1967429220676422,0.005776414647698402,0.1989777684211731,0.005908926483243704
4.450000000000001e-06,4.5e-06,4.999999999999952e-08,10.0,1.0,0.1989777684211731,0.005908926483243704,0.2012125849723816,0.006042934488505125
4.5e-06,4.5500000000000005e-06,5.000000000000037e-08,10.0,1.0,0.2012125849723816,0.006042934488505125,0.2034473717212677,0.006178438663482666
4.5500000000000005e-06,4.6e-06,4.999999999999952e-08,10.0,1.0,0.2034473717212677,0.006178438663482666,0.20568212866783142,0.0063154385425150394
4.6e-06,4.65e-06,5.000000000000037e-08,10.0,1.0,0.20568212866783142,0.0063154385425150394,0.20791685581207275,0.006453933659940958
4.65e-06,4.700000000000001e-06,5.000000000000037e-08,10.0,1.0,0.20791685581207275,0.006453933659940958,0.2101515531539917,0.006593924015760422
4.700000000000001e-06,4.75e-06,4.999999999999952e-08,10.0,1.0,0.2101515531539917,0.006593924015760422,0.21238622069358826,0.006735409609973431
4.75e-06,4.800000000000001e-06,5.000000000000037e-08,10.0,1.0,0.21238622069358826,0.006735409609973431,0.21462084352970123,0.006878389976918697
4.800000000000001e-06,4.85e-06,4.999999999999952e-08,10.0,1.0,0.21462084352970123,0.006878389976918697,0.21685543656349182,0.007022865116596222
4.85e-06,4.9000000000000005e-06,5.000000000000037e-08,10.0,1.0,0.21685543656349182,0.007022865116596222,0.21908999979496002,0.007168834563344717
4.9000000000000005e-06,4.95e-06,4.999999999999952e-08,10.0,1.0,0.21908999979496002,0.007168834563344717,0.22132453322410583,0.007316298317164183
4.95e-06,5e-06,5.000000000000037e-08,10.0,1.0,0.22132453322410583,0.007316298317164183,0.22355903685092926,0.0074652559123933315
5e-06,5.050000000000001e-06,5.000000000000037e-08,10.0,0.0,0.22355903685092926,0.0074652559123933315,0.22355736792087555,0.007615706883370876
5.050000000000001e-06,5.1e-06,4.999999999999952e-08,10.0,0.0,0.22355736792087555,0.007615706883370876,0.22355566918849945,0.007766136433929205
5.1e-06,5.150000000000001e-06,5.000000000000037e-08,10.0,0.0,0.22355566918849945,0.007766136433929205,0.22355392575263977,0.007916544564068317
5.150000000000001e-06,5.2e-06,4.999999999999952e-08,10.0,0.0,0.22355392575263977,0.007916544564068317,0.2235521525144577,0.008066930808126926
5.2e-06,5.2500000000000006e-06,5.000000000000037e-08,10.0,0.0,0.2235521525144577,0.008066930808126926,0.22355034947395325,0.00821729563176632
5.2500000000000006e-06,5.3e-06,4.999999999999952e-08,10.0,0.0,0.22355034947395325,0.00821729563176632,0.2235485166311264,0.008367639034986496
5.3e-06,5.3500000000000004e-06,5.000000000000037e-08,10.0,0.0,0.2235485166311264,0.008367639034986496,0.22354663908481598,0.008517961017787457
5.3500000000000004e-06,5.400000000000001e-06,5.000000000000037e-08,10.0,0.0,0.22354663908481598,0.008517961017787457,0.22354473173618317,0.008668261580169201
5.400000000000001e-06,5.45e-06,4.999999999999952e-08,10.0,0.0,0.22354473173618317,0.008668261580169201,0.22354279458522797,0.008818539790809155
5.45e-06,5.500000000000001e-06,5.000000000000037e-08,10.0,0.0,0.22354279458522797,0.008818539790809155,0.22354082763195038,0.008968796581029892
5.500000000000001e-06,5.55e-06,4.999999999999952e-08,10.0,0.0,0.22354082763195038,0.008968796581029892,0.2235388159751892,0.009119031950831413
5.55e-06,5.600000000000001e-06,5.000000000000037e-08,10.0,0.0,0.2235388159751892,0.009119031950831413,0.22353677451610565,0.009269244968891144
5.600000000000001e-06,5.65e-06,4.999999999999952e-08,10.0,0.0,0.22353677451610565,0.009269244968891144,0.2235347032546997,0.009419436566531658
5.65e-06,5.7000000000000005e-06,5.000000000000037e-08,10.0,0.0,0.2235347032546997,0.009419436566531658,0.22353260219097137,0.009569606743752956
5.7000000000000005e-06,5.750000000000001e-06,5.000000000000037e-08,10.0,0.0,0.22353260219097137,0.009569606743752956,0.22353045642375946,0.009719754569232464
5.750000000000001e-06,5.8e-06,4.999999999999952e-08,10.0,0.0,0.22353045642375946,0.009719754569232464,0.22352828085422516,0.009869880974292755
5.8e-06,5.850000000000001e-06,5.000000000000037e-08,10.0,0.0,0.22352828085422516,0.009869880974292755,0.22352607548236847,0.010019985027611256
5.850000000000001e-06,5.9e-06,4.999999999999952e-08,10.0,0.0,0.22352607548236847,0.010019985027611256,0.2235238403081894,0.01017006766051054
5.9e-06,5.950000000000001e-06,5.000000000000037e-08,10.0,0.0,0.2235238403081894,0.01017006766051054,0.22352156043052673,0.010320128872990608
5.950000000000001e-06,6e-06,4.999999999999952e-08,10.0,0.0,0.22352156043052673,0.010320128872990608,0.2235192507505417,0.010470167733728886
6e-06,6.0500000000000005e-06,5.000000000000037e-08,10.0,0.0,0.2235192507505417,0.010470167733728886,0.22351691126823425,0.010620185174047947
6.0500000000000005e-06,6.100000000000001e-06,5.000000000000037e-08,10.0,0.0,0.22351691126823425,0.010620185174047947,0.22351454198360443,0.010770180262625217
6.100000000000001e-06,6.15e-06,4.999999999999952e-08,10.0,0.0,0.22351454198360443,0.010770180262625217,0.22351212799549103,0.010920153930783272
6.15e-06,6.200000000000001e-06,5.000000000000037e-08,10.0,0.0,0.22351212799549103,0.010920153930783272,0.22350968420505524,0.011070105247199535
6.200000000000001e-06,6.25e-06,4.999999999999952e-08,10.0,0.0,0.22350968420505524,0.011070105247199535,0.22350721061229706,0.011220034211874008
6.25e-06,6.300000000000001e-06,5.000000000000037e-08,10.0,0.0,0.22350721061229706,0.011220034211874008,0.2235047072172165,0.011369941756129265
6.300000000000001e-06,6.35e-06,4.999999999999952e-08,10.0,0.0,0.2235047072172165,0.011369941756129265,0.22350215911865234,0.01151982694864273
6.35e-06,6.4000000000000006e-06,5.000000000000037e-08,10.0,0.0,0.22350215911865234,0.01151982694864273,0.2234995812177658,0.011669689789414406
6.4000000000000006e-06,6.450000000000001e-06,5.000000000000037e-08,10.0,0.0,0.2234995812177658,0.011669689789414406,0.22349697351455688,0.011819531209766865
6.450000000000001e-06,6.5000000000000004e-06,4.999999999999952e-08,10.0,0.0,0.22349697351455688,0.011819531209766865,0.22349433600902557,0.011969350278377533
6.5000000000000004e-06,6.550000000000001e-06,5.000000000000037e-08,10.0,0.0,0.22349433600902557,0.011969350278377533,0.22349165380001068,0.01211914699524641
6.550000000000001e-06,6.6e-06,4.999999999999952e-08,10.0,0.0,0.22349165380001068,0.01211914699524641,0.2234889417886734,0.012268922291696072
6.6e-06,6.650000000000001e-06,5.000000000000037e-08,10.0,0.0,0.2234889417886734,0.012268922291696072,0.22348619997501373,0.012418675236403942
6.650000000000001e-06,6.7e-06,4.999999999999952e-08,10.0,0.0,0.22348619997501373,0.012418675236403942,0.22348342835903168,0.012568405829370022
6.7e-06,6.750000000000001e-06,5.000000000000037e-08,10.0,0.0,0.22348342835903168,0.012568405829370022,0.22348061203956604,0.01271811407059431
6.750000000000001e-06,6.800000000000001e-06,5.000000000000037e-08,10.0,0.0,0.22348061203956604,0.01271811407059431,0.22347776591777802,0.012867799960076809
